! Mini-Circuits  
! S2P DATA File Format
! Type: MMIC Amplifier
! Model: GALI-19     Reference Data:RDF-1299
! Note: All S Parameters are in dB deg format
! TEST CONDITIONS: INPUT POWER = -20dBm, Icc = 48mA, Vd = 3.71V @Temperature = +25degC
! 401 Frequency points
!
# MHz S DB R 50
!    FREQ       dB(S11)   PHS(S11)  dB(S21)   PHS(S21)  dB(S12)   PHS(S12)  dB(S22)   PHS(S22) 
   50.000000   -39.578     5.849    12.508   174.180   -17.221    -4.695   -27.834   168.589 
   65.000000   -39.548     1.564    12.507   172.692   -17.188    -6.231   -27.763   170.817 
   80.000000   -41.182    -4.066    12.500   171.255   -17.196    -7.123   -27.833   169.805 
  100.000000   -41.243   -11.420    12.479   169.238   -17.209    -8.860   -27.733   165.959 
  115.000000   -40.642    -8.863    12.467   167.883   -17.233   -10.000   -27.940   165.810 
  135.000000   -39.249   -24.575    12.465   165.771   -17.222   -11.626   -27.799   163.765 
  150.000000   -40.649   -29.750    12.467   164.279   -17.203   -13.027   -27.624   162.759 
  170.000000   -40.528   -40.331    12.464   162.215   -17.213   -14.617   -27.812   160.382 
  185.000000   -39.629   -35.741    12.457   160.706   -17.219   -15.861   -27.857   160.012 
  205.000000   -39.969   -36.900    12.456   158.710   -17.214   -17.515   -27.678   157.688 
  220.000000   -40.198   -44.132    12.432   157.179   -17.231   -18.830   -27.662   157.212 
  240.000000   -40.384   -49.567    12.429   155.170   -17.246   -20.390   -27.712   155.667 
  255.000000   -39.568   -54.409    12.432   153.661   -17.233   -21.627   -27.730   154.582 
  275.000000   -39.015   -54.339    12.427   151.611   -17.228   -23.293   -27.884   153.191 
  290.000000   -38.381   -61.537    12.420   150.064   -17.255   -24.460   -27.614   151.427 
  310.000000   -38.207   -63.999    12.416   148.047   -17.258   -26.227   -27.627   149.865 
  325.000000   -37.860   -66.590    12.406   146.519   -17.252   -27.465   -27.649   148.265 
  345.000000   -37.770   -70.652    12.408   144.523   -17.255   -29.122   -27.590   146.896 
  360.000000   -37.441   -75.501    12.394   142.985   -17.253   -30.355   -27.750   145.846 
  380.000000   -37.056   -78.976    12.383   140.977   -17.254   -31.954   -27.609   143.776 
  395.000000   -36.704   -81.380    12.379   139.462   -17.255   -33.258   -27.590   142.366 
  415.000000   -36.562   -85.461    12.376   137.447   -17.263   -34.947   -27.657   140.889 
  430.000000   -36.407   -87.023    12.374   135.927   -17.259   -36.152   -27.665   138.679 
  450.000000   -36.137   -87.863    12.362   133.920   -17.259   -37.792   -27.615   137.561 
  465.000000   -36.121   -90.114    12.359   132.399   -17.273   -39.053   -27.568   136.253 
  485.000000   -35.509   -93.148    12.355   130.341   -17.272   -40.751   -27.441   134.090 
  500.000000   -35.573   -95.735    12.349   128.820   -17.269   -41.983   -27.539   132.244 
  520.000000   -35.430  -101.323    12.343   126.842   -17.278   -43.655   -27.541   131.087 
  535.000000   -34.973  -103.219    12.330   125.312   -17.276   -44.915   -27.530   129.353 
  555.000000   -34.902  -105.329    12.319   123.306   -17.288   -46.538   -27.417   127.490 
  570.000000   -34.554  -105.714    12.321   121.782   -17.283   -47.807   -27.309   125.903 
  590.000000   -34.475  -109.891    12.314   119.784   -17.279   -49.468   -27.364   123.898 
  605.000000   -34.331  -111.576    12.309   118.248   -17.284   -50.755   -27.407   122.761 
  625.000000   -33.984  -114.083    12.292   116.256   -17.297   -52.482   -27.300   120.600 
  640.000000   -33.849  -117.223    12.284   114.768   -17.293   -53.722   -27.282   119.342 
  660.000000   -33.633  -119.065    12.281   112.739   -17.307   -55.407   -27.231   117.437 
  675.000000   -33.521  -121.455    12.281   111.231   -17.289   -56.619   -27.238   116.199 
  695.000000   -33.274  -124.109    12.271   109.214   -17.292   -58.292   -27.303   114.447 
  710.000000   -33.156  -124.406    12.258   107.719   -17.304   -59.532   -27.190   113.039 
  730.000000   -32.971  -127.165    12.248   105.712   -17.303   -61.248   -27.149   111.384 
  745.000000   -32.915  -129.436    12.247   104.210   -17.315   -62.473   -27.170   109.869 
  765.000000   -32.590  -131.717    12.236   102.218   -17.310   -64.152   -27.185   107.737 
  780.000000   -32.468  -132.542    12.227   100.707   -17.317   -65.413   -27.157   106.402 
  800.000000   -32.306  -134.434    12.221    98.713   -17.314   -67.041   -27.192   104.258 
  815.000000   -32.216  -136.988    12.219    97.212   -17.324   -68.374   -27.194   102.856 
  835.000000   -32.152  -139.362    12.208    95.216   -17.320   -69.967   -27.293   100.827 
  850.000000   -31.963  -139.843    12.200    93.694   -17.333   -71.294   -27.215    99.603 
  870.000000   -31.739  -142.259    12.191    91.727   -17.339   -72.910   -27.212    97.860 
  885.000000   -31.695  -143.982    12.186    90.225   -17.340   -74.162   -27.208    96.098 
  905.000000   -31.490  -145.233    12.184    88.245   -17.333   -75.831   -27.300    94.076 
  920.000000   -31.339  -147.594    12.171    86.729   -17.335   -77.135   -27.352    92.351 
  940.000000   -31.191  -149.963    12.161    84.741   -17.355   -78.779   -27.217    90.199 
  955.000000   -31.011  -150.155    12.157    83.243   -17.358   -80.042   -27.255    88.786 
  975.000000   -30.955  -152.874    12.150    81.262   -17.347   -81.701   -27.330    86.615 
  990.000000   -30.786  -154.731    12.143    79.780   -17.360   -82.960   -27.343    85.202 
 1010.000000   -30.612  -156.121    12.129    77.765   -17.360   -84.651   -27.410    83.300 
 1025.000000   -30.472  -157.658    12.123    76.276   -17.368   -85.900   -27.322    81.891 
 1045.000000   -30.258  -159.195    12.116    74.267   -17.374   -87.585   -27.300    80.208 
 1060.000000   -30.338  -161.690    12.112    72.769   -17.368   -88.824   -27.409    78.709 
 1080.000000   -30.165  -164.439    12.102    70.772   -17.368   -90.552   -27.371    76.739 
 1095.000000   -29.938  -164.802    12.093    69.306   -17.383   -91.783   -27.327    75.321 
 1115.000000   -29.867  -166.767    12.082    67.331   -17.394   -93.474   -27.347    73.538 
 1130.000000   -29.749  -168.046    12.083    65.839   -17.400   -94.742   -27.302    72.050 
 1150.000000   -29.757  -169.963    12.078    63.821   -17.397   -96.384   -27.467    69.827 
 1165.000000   -29.632  -172.541    12.067    62.330   -17.400   -97.650   -27.491    68.252 
 1185.000000   -29.376  -173.215    12.051    60.356   -17.409   -99.345   -27.472    66.181 
 1200.000000   -29.231  -174.647    12.047    58.870   -17.408  -100.606   -27.507    64.809 
 1220.000000   -29.161  -176.281    12.041    56.887   -17.415  -102.260   -27.561    62.942 
 1235.000000   -29.086  -178.366    12.037    55.402   -17.417  -103.553   -27.650    61.845 
 1255.000000   -28.985   179.163    12.024    53.421   -17.419  -105.229   -27.781    59.793 
 1270.000000   -28.825   178.897    12.016    51.948   -17.431  -106.494   -27.649    58.405 
 1290.000000   -28.728   177.152    12.011    49.962   -17.442  -108.165   -27.717    56.449 
 1305.000000   -28.650   175.205    12.002    48.466   -17.441  -109.410   -27.754    54.466 
 1325.000000   -28.559   172.821    12.002    46.515   -17.446  -111.098   -27.813    52.699 
 1340.000000   -28.446   171.982    11.988    45.019   -17.446  -112.311   -27.946    51.232 
 1360.000000   -28.240   169.913    11.977    43.053   -17.466  -114.028   -27.902    49.336 
 1375.000000   -28.076   169.042    11.978    41.563   -17.461  -115.279   -27.882    47.740 
 1395.000000   -27.933   166.704    11.971    39.588   -17.467  -116.991   -28.068    45.864 
 1410.000000   -27.873   165.076    11.963    38.112   -17.469  -118.256   -28.144    44.616 
 1430.000000   -27.700   163.549    11.952    36.108   -17.477  -119.952   -28.134    42.640 
 1445.000000   -27.611   161.904    11.937    34.661   -17.484  -121.235   -28.152    40.728 
 1465.000000   -27.490   160.777    11.932    32.659   -17.502  -122.920   -28.120    38.581 
 1480.000000   -27.422   158.611    11.929    31.180   -17.498  -124.216   -28.381    37.460 
 1500.000000   -27.290   157.065    11.917    29.198   -17.502  -125.864   -28.404    35.567 
 1515.000000   -27.211   156.075    11.913    27.717   -17.511  -127.110   -28.382    34.068 
 1535.000000   -27.115   154.330    11.906    25.747   -17.519  -128.789   -28.508    32.137 
 1550.000000   -27.089   152.039    11.894    24.308   -17.517  -130.105   -28.689    30.833 
 1570.000000   -26.907   151.298    11.885    22.306   -17.532  -131.741   -28.662    28.854 
 1585.000000   -26.767   150.221    11.877    20.815   -17.542  -133.051   -28.752    27.528 
 1605.000000   -26.665   148.295    11.867    18.874   -17.546  -134.736   -28.841    25.599 
 1620.000000   -26.628   147.254    11.864    17.391   -17.545  -135.979   -28.978    23.734 
 1640.000000   -26.507   145.500    11.850    15.402   -17.555  -137.667   -29.234    22.720 
 1655.000000   -26.313   144.499    11.841    13.938   -17.557  -138.891   -29.205    21.209 
 1675.000000   -26.232   142.280    11.836    11.966   -17.570  -140.619   -29.270    19.232 
 1690.000000   -26.159   140.962    11.830    10.490   -17.582  -141.907   -29.442    17.557 
 1710.000000   -26.063   139.332    11.829     8.546   -17.579  -143.567   -29.585    16.088 
 1725.000000   -25.960   137.736    11.815     7.062   -17.586  -144.838   -29.848    14.360 
 1745.000000   -25.761   136.891    11.808     5.095   -17.599  -146.536   -29.831    12.813 
 1760.000000   -25.628   135.873    11.798     3.630   -17.601  -147.778   -29.926    11.614 
 1780.000000   -25.600   133.226    11.792     1.650   -17.613  -149.526   -30.109     9.688 
 1795.000000   -25.550   132.031    11.793     0.171   -17.618  -150.762   -30.272     7.835 
 1815.000000   -25.398   130.305    11.773    -1.799   -17.619  -152.480   -30.581     5.753 
 1830.000000   -25.247   129.359    11.765    -3.260   -17.635  -153.699   -30.538     4.385 
 1850.000000   -25.103   128.047    11.760    -5.203   -17.643  -155.460   -30.688     2.364 
 1865.000000   -25.130   126.834    11.756    -6.673   -17.641  -156.663   -30.920     1.026 
 1885.000000   -25.033   124.730    11.751    -8.637   -17.650  -158.415   -31.191    -1.004 
 1900.000000   -24.972   123.876    11.738   -10.112   -17.659  -159.680   -31.420    -2.400 
 1920.000000   -24.741   122.360    11.723   -12.040   -17.664  -161.295   -31.616    -4.175 
 1935.000000   -24.634   121.161    11.719   -13.540   -17.675  -162.571   -31.732    -5.084 
 1955.000000   -24.513   119.208    11.720   -15.516   -17.678  -164.281   -32.052    -6.867 
 1970.000000   -24.438   118.307    11.714   -16.967   -17.677  -165.626   -32.157    -8.423 
 1990.000000   -24.338   116.379    11.704   -18.947   -17.688  -167.288   -32.511   -10.134 
 2005.000000   -24.244   115.493    11.694   -20.417   -17.691  -168.563   -32.565   -11.371 
 2025.000000   -24.117   113.990    11.694   -22.359   -17.710  -170.286   -32.706   -13.237 
 2040.000000   -24.079   112.029    11.679   -23.876   -17.713  -171.542   -33.043   -15.290 
 2060.000000   -23.955   111.006    11.678   -25.843   -17.717  -173.304   -33.481   -18.155 
 2075.000000   -23.851   109.781    11.664   -27.305   -17.719  -174.559   -33.688   -19.409 
 2095.000000   -23.798   108.660    11.648   -29.237   -17.750  -176.279   -33.933   -22.126 
 2120.000000   -23.657   106.616    11.646   -31.691   -17.750  -178.354   -34.409   -24.382 
 2160.000000   -23.432   103.445    11.632   -35.617   -17.770   178.175   -35.504   -27.696 
 2190.000000   -23.326   101.149    11.610   -38.560   -17.784   175.615   -36.294   -33.385 
 2230.000000   -23.039    98.653    11.589   -42.470   -17.808   172.300   -37.322   -37.500 
 2260.000000   -22.816    96.090    11.578   -45.372   -17.814   169.746   -38.654   -40.445 
 2300.000000   -22.624    93.000    11.564   -49.287   -17.847   166.267   -40.254   -45.979 
 2330.000000   -22.503    90.613    11.559   -52.205   -17.849   163.728   -41.868   -50.650 
 2370.000000   -22.318    87.270    11.533   -56.154   -17.871   160.258   -44.598   -54.744 
 2400.000000   -22.137    85.119    11.518   -59.073   -17.885   157.657   -46.023   -61.137 
 2440.000000   -21.901    82.333    11.498   -62.974   -17.920   154.290   -49.056   -82.971 
 2470.000000   -21.843    79.999    11.488   -65.903   -17.927   151.763   -53.857  -111.829 
 2510.000000   -21.599    76.908    11.474   -69.753   -17.936   148.350   -53.193   162.058 
 2540.000000   -21.446    73.871    11.461   -72.726   -17.953   145.676   -48.908   144.490 
 2580.000000   -21.310    70.733    11.434   -76.633   -17.987   142.258   -46.204   141.683 
 2610.000000   -21.103    68.843    11.424   -79.519   -18.004   139.713   -43.473   130.228 
 2650.000000   -20.938    65.237    11.414   -83.440   -18.009   136.211   -40.694   122.392 
 2680.000000   -20.841    62.552    11.400   -86.363   -18.030   133.572   -39.433   120.659 
 2720.000000   -20.619    59.776    11.375   -90.265   -18.049   130.189   -37.992   115.052 
 2750.000000   -20.530    56.981    11.354   -93.196   -18.067   127.530   -36.957   113.938 
 2790.000000   -20.382    54.292    11.341   -97.033   -18.111   124.172   -35.430   111.028 
 2820.000000   -20.212    51.846    11.327   -99.934   -18.122   121.524   -34.311   107.112 
 2860.000000   -20.016    48.904    11.308  -103.803   -18.147   118.154   -33.025   103.410 
 2890.000000   -19.834    46.344    11.302  -106.715   -18.162   115.529   -32.502   100.187 
 2930.000000   -19.655    43.230    11.278  -110.617   -18.189   112.063   -31.678    95.947 
 2960.000000   -19.512    40.874    11.272  -113.500   -18.212   109.467   -31.051    93.847 
 3000.000000   -19.334    37.293    11.258  -117.403   -18.223   106.021   -30.269    89.287 
 3030.000000   -19.186    34.693    11.239  -120.342   -18.242   103.362   -29.858    86.217 
 3070.000000   -19.055    31.297    11.225  -124.216   -18.269    99.843   -29.262    83.016 
 3100.000000   -18.946    28.984    11.213  -127.109   -18.272    97.258   -28.691    80.909 
 3140.000000   -18.862    25.568    11.188  -131.014   -18.300    93.650   -28.171    77.841 
 3170.000000   -18.695    23.710    11.176  -133.877   -18.331    91.084   -27.729    75.732 
 3210.000000   -18.479    20.730    11.165  -137.726   -18.362    87.683   -27.102    72.127 
 3240.000000   -18.423    18.312    11.154  -140.626   -18.389    85.024   -26.708    69.310 
 3280.000000   -18.197    15.031    11.139  -144.451   -18.403    81.612   -26.150    66.014 
 3310.000000   -18.062    12.558    11.128  -147.400   -18.414    78.964   -25.780    62.759 
 3350.000000   -17.976     8.991    11.105  -151.310   -18.438    75.391   -25.575    60.044 
 3380.000000   -17.860     7.035    11.089  -154.146   -18.470    72.683   -25.246    58.022 
 3420.000000   -17.671     3.918    11.080  -157.965   -18.489    69.289   -24.648    54.525 
 3450.000000   -17.592     1.403    11.069  -160.896   -18.516    66.636   -24.446    51.926 
 3490.000000   -17.472    -2.140    11.045  -164.816   -18.523    63.021   -24.162    48.963 
 3520.000000   -17.371    -4.268    11.031  -167.656   -18.549    60.399   -23.769    46.905 
 3560.000000   -17.239    -7.095    11.021  -171.424   -18.603    56.884   -23.391    44.200 
 3590.000000   -17.138    -9.569    11.009  -174.344   -18.604    54.259   -23.120    41.117 
 3630.000000   -16.992   -12.884    11.004  -178.206   -18.633    50.867   -22.747    37.442 
 3660.000000   -16.889   -15.494    10.991   178.854   -18.635    48.240   -22.541    34.923 
 3700.000000   -16.885   -18.617    10.962   175.072   -18.680    44.520   -22.340    32.772 
 3730.000000   -16.706   -20.843    10.969   172.220   -18.702    42.006   -22.050    29.506 
 3770.000000   -16.626   -24.389    10.949   168.263   -18.698    38.374   -21.844    26.101 
 3800.000000   -16.637   -26.704    10.929   165.411   -18.731    35.664   -21.675    24.816 
 3840.000000   -16.430   -29.759    10.926   161.643   -18.776    32.274   -21.344    21.300 
 3870.000000   -16.397   -32.729    10.910   158.693   -18.776    29.568   -21.228    18.497 
 3910.000000   -16.377   -35.785    10.897   154.860   -18.788    25.911   -21.022    15.962 
 3940.000000   -16.344   -38.357    10.879   151.971   -18.813    23.235   -20.846    13.829 
 3980.000000   -16.252   -41.127    10.855   148.250   -18.856    19.526   -20.574    11.521 
 4010.000000   -16.112   -43.191    10.866   145.398   -18.901    16.923   -20.282     9.290 
 4050.000000   -15.979   -47.336    10.872   141.448   -18.897    13.692   -20.172     4.894 
 4080.000000   -15.994   -50.158    10.857   138.554   -18.898    10.812   -20.066     2.681 
 4120.000000   -15.942   -53.474    10.839   134.675   -18.923     7.270   -19.866    -0.322 
 4150.000000   -15.922   -56.313    10.825   131.743   -18.928     4.621   -19.877    -2.524 
 4190.000000   -15.924   -59.314    10.805   127.981   -18.956     0.810   -19.692    -4.994 
 4220.000000   -15.906   -61.633    10.793   125.124   -18.970    -1.890   -19.552    -7.214 
 4260.000000   -15.916   -64.310    10.781   121.404   -19.003    -5.739   -19.360    -9.032 
 4290.000000   -15.784   -67.067    10.788   118.492   -19.045    -8.180   -19.122   -12.113 
 4330.000000   -15.730   -70.882    10.773   114.574   -19.044   -11.800   -19.096   -15.391 
 4360.000000   -15.774   -73.353    10.756   111.733   -19.057   -14.577   -19.010   -17.029 
 4400.000000   -15.757   -76.591    10.751   107.958   -19.090   -18.168   -18.859   -19.968 
 4430.000000   -15.711   -78.844    10.741   105.115   -19.101   -20.975   -18.710   -22.160 
 4470.000000   -15.716   -82.527    10.732   101.260   -19.106   -24.568   -18.600   -24.982 
 4500.000000   -15.712   -84.810    10.726    98.412   -19.136   -27.443   -18.513   -26.584 
 4540.000000   -15.597   -88.368    10.739    94.573   -19.174   -30.900   -18.309   -30.781 
 4570.000000   -15.602   -90.887    10.729    91.675   -19.179   -33.668   -18.283   -32.760 
 4610.000000   -15.570   -94.226    10.722    87.844   -19.219   -37.296   -18.157   -35.353 
 4640.000000   -15.568   -97.410    10.715    84.913   -19.226   -40.007   -18.127   -37.780 
 4680.000000   -15.597  -100.586    10.703    81.223   -19.237   -43.783   -18.021   -40.253 
 4710.000000   -15.655  -102.706    10.701    78.406   -19.253   -46.708   -17.860   -42.080 
 4750.000000   -15.536  -105.944    10.723    74.583   -19.314   -50.254   -17.700   -45.778 
 4780.000000   -15.449  -109.185    10.722    71.562   -19.321   -52.728   -17.666   -48.696 
 4820.000000   -15.447  -112.775    10.719    67.715   -19.342   -56.362   -17.612   -51.350 
 4850.000000   -15.480  -116.518    10.712    64.649   -19.328   -58.911   -17.662   -54.208 
 4890.000000   -15.759  -120.561    10.662    60.795   -19.253   -62.763   -17.816   -56.223 
 4920.000000   -15.833  -121.926    10.646    58.145   -19.281   -65.984   -17.622   -56.987 
 4960.000000   -15.815  -124.288    10.669    54.463   -19.339   -69.881   -17.385   -59.526 
 4990.000000   -15.765  -126.728    10.689    51.673   -19.383   -72.604   -17.312   -62.032 
 5030.000000   -15.681  -130.804    10.711    47.730   -19.425   -76.017   -17.209   -66.031 
 5060.000000   -15.743  -133.853    10.709    44.686   -19.429   -78.656   -17.207   -68.530 
 5100.000000   -15.886  -137.866    10.683    40.789   -19.397   -82.322   -17.348   -71.037 
 5130.000000   -15.999  -140.593    10.658    37.956   -19.370   -85.143   -17.375   -72.602 
 5170.000000   -16.128  -142.567    10.668    34.422   -19.380   -89.444   -17.192   -74.017 
