! Mini-Circuits  
! S2P DATA File Format
! Type: MMIC Amplifier
! Model: GALI-19     Reference Data:RDF-1299
! Note: All S Parameters are in dB deg format
! TEST CONDITIONS: INPUT POWER = -20dBm, Icc = 40mA, Vd = 3.48V @Temperature = +85degC
! 401 Frequency points
!
# MHz S DB R 50
!    FREQ       dB(S11)   PHS(S11)  dB(S21)   PHS(S21)  dB(S12)   PHS(S12)  dB(S22)   PHS(S22) 
   50.000000   -34.532     2.080    12.254   174.320   -17.079    -4.702   -30.538   163.052 
   65.000000   -34.989     1.631    12.258   172.843   -17.045    -5.788   -29.951   166.081 
   80.000000   -36.233    -3.855    12.250   171.455   -17.057    -7.009   -29.875   165.140 
  100.000000   -37.037    -7.303    12.234   169.467   -17.059    -8.611   -28.800   162.900 
  115.000000   -38.559    -4.905    12.218   168.145   -17.059    -9.729   -28.769   162.649 
  135.000000   -39.652   -18.763    12.210   166.090   -17.058   -11.220   -28.309   161.914 
  150.000000   -42.355   -26.932    12.217   164.630   -17.069   -12.610   -27.931   161.415 
  170.000000   -42.567   -41.063    12.213   162.618   -17.063   -14.106   -27.686   160.065 
  185.000000   -41.702   -38.328    12.215   161.137   -17.057   -15.464   -27.365   161.082 
  205.000000   -43.908   -46.339    12.200   159.186   -17.074   -16.834   -27.458   160.239 
  220.000000   -43.099   -59.196    12.178   157.716   -17.075   -18.131   -27.505   160.244 
  240.000000   -42.290   -66.327    12.180   155.743   -17.092   -19.742   -27.404   160.015 
  255.000000   -40.181   -67.710    12.180   154.255   -17.098   -20.892   -27.648   158.934 
  275.000000   -38.475   -62.764    12.174   152.252   -17.102   -22.457   -27.801   158.583 
  290.000000   -37.540   -68.435    12.164   150.755   -17.097   -23.684   -28.193   157.761 
  310.000000   -36.696   -70.633    12.155   148.796   -17.102   -25.344   -28.702   156.855 
  325.000000   -35.611   -71.463    12.157   147.286   -17.087   -26.516   -28.790   155.584 
  345.000000   -34.445   -70.262    12.157   145.332   -17.097   -28.090   -29.164   153.763 
  360.000000   -33.617   -71.522    12.142   143.827   -17.108   -29.312   -29.386   152.839 
  380.000000   -33.145   -74.339    12.133   141.867   -17.104   -30.937   -30.074   150.886 
  395.000000   -32.696   -75.306    12.121   140.384   -17.108   -32.117   -30.509   148.924 
  415.000000   -32.056   -76.474    12.129   138.417   -17.100   -33.718   -30.564   146.869 
  430.000000   -31.658   -76.227    12.119   136.928   -17.109   -34.970   -30.716   143.653 
  450.000000   -31.052   -76.391    12.104   134.967   -17.113   -36.498   -30.736   141.895 
  465.000000   -31.302   -79.278    12.104   133.492   -17.122   -37.750   -31.129   140.580 
  485.000000   -30.903   -81.117    12.092   131.473   -17.116   -39.460   -31.245   137.992 
  500.000000   -30.832   -82.553    12.096   129.988   -17.121   -40.560   -31.063   135.836 
  520.000000   -30.668   -85.478    12.088   128.062   -17.128   -42.208   -31.015   134.997 
  535.000000   -30.285   -86.295    12.076   126.561   -17.134   -43.440   -30.754   133.237 
  555.000000   -30.518   -89.323    12.063   124.620   -17.139   -44.952   -30.974   131.976 
  570.000000   -30.401   -90.865    12.060   123.127   -17.139   -46.189   -31.158   131.118 
  590.000000   -30.295   -92.428    12.057   121.164   -17.137   -47.874   -30.812   129.997 
  605.000000   -30.158   -93.068    12.055   119.681   -17.145   -49.017   -30.678   129.026 
  625.000000   -30.065   -95.840    12.030   117.733   -17.155   -50.697   -30.828   127.776 
  640.000000   -30.083   -98.365    12.027   116.284   -17.145   -51.895   -30.824   126.912 
  660.000000   -30.085  -100.514    12.023   114.295   -17.153   -53.527   -31.023   126.196 
  675.000000   -29.775  -101.091    12.024   112.822   -17.147   -54.747   -30.755   125.270 
  695.000000   -29.518  -102.732    12.017   110.879   -17.156   -56.289   -30.741   123.681 
  710.000000   -29.505  -103.849    11.999   109.417   -17.168   -57.563   -31.054   122.908 
  730.000000   -29.413  -106.398    11.982   107.468   -17.164   -59.175   -31.200   122.054 
  745.000000   -29.415  -108.469    11.991   105.983   -17.160   -60.358   -31.338   120.503 
  765.000000   -29.034  -110.053    11.977   104.049   -17.182   -61.960   -31.502   118.483 
  780.000000   -28.877  -110.948    11.962   102.563   -17.177   -63.195   -31.551   117.166 
  800.000000   -28.776  -112.638    11.964   100.625   -17.171   -64.803   -31.740   115.215 
  815.000000   -28.523  -113.736    11.959    99.161   -17.170   -65.983   -31.763   113.044 
  835.000000   -28.312  -115.252    11.949    97.223   -17.192   -67.557   -31.737   110.887 
  850.000000   -28.305  -116.988    11.940    95.743   -17.196   -68.825   -32.206   110.451 
  870.000000   -28.200  -119.241    11.923    93.805   -17.185   -70.423   -32.378   108.366 
  885.000000   -28.156  -120.655    11.931    92.355   -17.194   -71.648   -32.239   106.196 
  905.000000   -27.851  -121.559    11.928    90.430   -17.205   -73.286   -32.316   104.060 
  920.000000   -27.695  -123.016    11.913    88.925   -17.206   -74.453   -32.259   101.820 
  940.000000   -27.784  -126.128    11.899    86.998   -17.211   -76.121   -32.555    99.930 
  955.000000   -27.671  -127.169    11.888    85.532   -17.211   -77.300   -32.830    98.755 
  975.000000   -27.593  -128.993    11.892    83.602   -17.210   -78.922   -32.519    96.306 
  990.000000   -27.453  -130.564    11.889    82.147   -17.228   -80.135   -32.577    94.908 
 1010.000000   -27.287  -132.054    11.865    80.212   -17.231   -81.715   -32.761    93.210 
 1025.000000   -27.306  -134.157    11.863    78.740   -17.232   -82.978   -32.792    91.888 
 1045.000000   -27.273  -136.621    11.855    76.801   -17.229   -84.585   -33.077    90.115 
 1060.000000   -27.185  -137.756    11.853    75.337   -17.226   -85.806   -32.772    88.619 
 1080.000000   -27.061  -140.189    11.849    73.385   -17.245   -87.410   -32.538    86.184 
 1095.000000   -26.895  -141.202    11.835    71.944   -17.260   -88.626   -32.759    84.939 
 1115.000000   -26.942  -143.986    11.822    70.000   -17.253   -90.281   -32.972    82.903 
 1130.000000   -26.918  -145.538    11.821    68.565   -17.253   -91.483   -33.173    81.607 
 1150.000000   -26.764  -146.909    11.819    66.613   -17.256   -93.122   -33.085    78.610 
 1165.000000   -26.661  -149.102    11.817    65.174   -17.272   -94.330   -32.814    76.639 
 1185.000000   -26.542  -150.969    11.793    63.217   -17.271   -95.930   -33.272    74.279 
 1200.000000   -26.463  -152.804    11.781    61.783   -17.283   -97.133   -33.393    72.319 
 1220.000000   -26.469  -154.927    11.782    59.829   -17.267   -98.772   -33.401    70.578 
 1235.000000   -26.281  -156.282    11.778    58.375   -17.280   -99.967   -33.391    69.109 
 1255.000000   -26.166  -158.274    11.765    56.442   -17.297  -101.607   -33.283    66.911 
 1270.000000   -26.149  -159.988    11.756    55.010   -17.299  -102.855   -33.673    65.195 
 1290.000000   -26.133  -162.341    11.747    53.078   -17.294  -104.427   -33.900    63.243 
 1305.000000   -26.080  -164.188    11.744    51.631   -17.300  -105.675   -33.586    60.591 
 1325.000000   -25.911  -166.038    11.742    49.716   -17.310  -107.276   -33.536    58.611 
 1340.000000   -25.755  -166.867    11.727    48.251   -17.317  -108.436   -33.464    57.187 
 1360.000000   -25.760  -169.970    11.715    46.333   -17.324  -110.114   -33.898    55.026 
 1375.000000   -25.689  -171.424    11.709    44.873   -17.325  -111.365   -34.056    53.367 
 1395.000000   -25.527  -173.439    11.711    42.961   -17.324  -112.968   -33.716    51.297 
 1410.000000   -25.461  -174.898    11.707    41.528   -17.340  -114.214   -33.827    50.528 
 1430.000000   -25.322  -176.742    11.692    39.585   -17.348  -115.801   -33.865    48.693 
 1445.000000   -25.369  -179.139    11.679    38.165   -17.350  -117.050   -34.106    46.057 
 1465.000000   -25.298   178.850    11.675    36.200   -17.351  -118.710   -34.262    43.996 
 1480.000000   -25.176   177.527    11.670    34.759   -17.356  -119.937   -34.127    42.923 
 1500.000000   -25.023   175.833    11.666    32.843   -17.370  -121.526   -33.919    40.818 
 1515.000000   -25.096   173.714    11.655    31.384   -17.381  -122.794   -34.420    39.105 
 1535.000000   -24.883   172.276    11.647    29.466   -17.383  -124.380   -34.217    37.050 
 1550.000000   -24.849   170.377    11.643    28.052   -17.394  -125.610   -34.177    35.514 
 1570.000000   -24.749   168.466    11.625    26.089   -17.401  -127.190   -34.740    33.417 
 1585.000000   -24.656   166.997    11.613    24.646   -17.401  -128.465   -34.729    31.978 
 1605.000000   -24.595   164.556    11.611    22.746   -17.397  -130.105   -34.748    29.557 
 1620.000000   -24.458   163.864    11.603    21.296   -17.417  -131.302   -34.694    27.313 
 1640.000000   -24.298   161.938    11.597    19.369   -17.420  -132.962   -34.721    26.720 
 1655.000000   -24.239   160.203    11.580    17.926   -17.433  -134.143   -35.264    24.702 
 1675.000000   -24.214   157.585    11.570    16.001   -17.427  -135.763   -35.498    22.578 
 1690.000000   -24.182   156.096    11.575    14.570   -17.449  -137.029   -35.585    21.097 
 1710.000000   -23.963   154.845    11.569    12.673   -17.459  -138.614   -35.429    19.357 
 1725.000000   -23.837   153.382    11.561    11.228   -17.465  -139.880   -35.419    17.758 
 1745.000000   -23.785   151.591    11.547     9.315   -17.476  -141.435   -36.101    16.638 
 1760.000000   -23.690   150.197    11.533     7.885   -17.469  -142.693   -36.315    16.023 
 1780.000000   -23.666   147.820    11.535     5.962   -17.479  -144.332   -36.295    15.141 
 1795.000000   -23.571   146.717    11.534     4.516   -17.494  -145.542   -36.356    13.210 
 1815.000000   -23.374   145.291    11.515     2.587   -17.501  -147.180   -36.568    11.695 
 1830.000000   -23.367   143.806    11.506     1.160   -17.501  -148.466   -37.256    10.411 
 1850.000000   -23.269   141.949    11.494    -0.744   -17.509  -150.049   -37.900     8.447 
 1865.000000   -23.298   140.915    11.499    -2.162   -17.509  -151.299   -37.768     8.338 
 1885.000000   -23.139   139.309    11.495    -4.066   -17.532  -152.911   -38.054     7.242 
 1900.000000   -23.051   138.416    11.480    -5.516   -17.534  -154.140   -38.086     6.476 
 1920.000000   -22.966   136.369    11.465    -7.401   -17.542  -155.735   -39.370     5.861 
 1935.000000   -22.902   134.947    11.456    -8.859   -17.540  -157.019   -40.093     5.823 
 1955.000000   -22.757   133.205    11.463   -10.790   -17.544  -158.641   -39.966     4.368 
 1970.000000   -22.656   132.303    11.457   -12.187   -17.565  -159.838   -40.332     4.277 
 1990.000000   -22.549   130.702    11.444   -14.127   -17.570  -161.511   -41.022     3.636 
 2005.000000   -22.556   129.043    11.433   -15.547   -17.573  -162.770   -41.899     5.312 
 2025.000000   -22.463   127.234    11.429   -17.469   -17.571  -164.431   -43.174     4.687 
 2040.000000   -22.410   125.700    11.422   -18.929   -17.577  -165.682   -42.837     1.434 
 2060.000000   -22.222   124.711    11.424   -20.853   -17.601  -167.289   -43.930     0.544 
 2075.000000   -22.099   123.621    11.405   -22.274   -17.611  -168.538   -44.139     0.176 
 2095.000000   -22.151   121.742    11.394   -24.170   -17.617  -170.173   -46.402    -0.925 
 2120.000000   -22.091   119.445    11.388   -26.571   -17.632  -172.244   -50.002     7.742 
 2160.000000   -21.778   116.723    11.372   -30.374   -17.650  -175.546   -52.073    21.958 
 2190.000000   -21.669   114.390    11.362   -33.238   -17.668  -178.014   -56.433    32.874 
 2230.000000   -21.503   111.494    11.334   -37.072   -17.699   178.743   -52.386   118.689 
 2260.000000   -21.310   108.813    11.318   -39.896   -17.704   176.243   -47.665   128.702 
 2300.000000   -21.180   105.418    11.312   -43.716   -17.724   172.920   -44.112   132.657 
 2330.000000   -20.995   103.275    11.300   -46.576   -17.732   170.470   -42.715   132.098 
 2370.000000   -20.793   100.032    11.282   -50.404   -17.751   167.203   -41.055   127.856 
 2400.000000   -20.689    97.465    11.267   -53.249   -17.771   164.745   -39.002   128.589 
 2440.000000   -20.530    94.269    11.238   -57.064   -17.796   161.357   -37.601   129.440 
 2470.000000   -20.438    91.871    11.235   -59.923   -17.804   158.945   -36.824   127.967 
 2510.000000   -20.160    88.824    11.231   -63.666   -17.828   155.612   -35.454   124.237 
 2540.000000   -19.989    85.914    11.207   -66.545   -17.849   153.122   -34.736   122.286 
 2580.000000   -19.943    82.403    11.182   -70.372   -17.868   149.725   -33.850   120.859 
 2610.000000   -19.787    80.193    11.169   -73.196   -17.885   147.276   -32.755   118.750 
 2650.000000   -19.543    76.936    11.162   -77.001   -17.908   143.935   -32.164   115.524 
 2680.000000   -19.449    74.319    11.155   -79.844   -17.934   141.453   -31.648   113.953 
 2720.000000   -19.252    71.189    11.124   -83.664   -17.951   138.113   -30.804   110.646 
 2750.000000   -19.185    68.195    11.108   -86.533   -17.962   135.573   -30.376   109.177 
 2790.000000   -19.117    65.174    11.094   -90.267   -18.004   132.191   -29.601   107.919 
 2820.000000   -18.858    62.621    11.082   -93.104   -18.016   129.727   -29.202   105.168 
 2860.000000   -18.656    59.417    11.067   -96.869   -18.049   126.395   -28.664   103.077 
 2890.000000   -18.511    56.672    11.053   -99.722   -18.073   123.937   -28.051   100.930 
 2930.000000   -18.348    53.174    11.025  -103.516   -18.090   120.595   -27.494    98.035 
 2960.000000   -18.210    50.602    11.027  -106.344   -18.110   118.034   -27.108    96.406 
 3000.000000   -17.935    47.152    11.014  -110.144   -18.121   114.750   -26.628    93.545 
 3030.000000   -17.814    44.392    10.992  -112.995   -18.149   112.150   -26.227    91.029 
 3070.000000   -17.629    40.817    10.982  -116.785   -18.166   108.810   -25.761    88.320 
 3100.000000   -17.439    38.649    10.968  -119.623   -18.195   106.235   -25.362    86.549 
 3140.000000   -17.273    35.220    10.943  -123.412   -18.227   102.841   -25.063    84.000 
 3170.000000   -17.129    33.092    10.932  -126.231   -18.253   100.336   -24.515    82.043 
 3210.000000   -16.920    30.058    10.909  -129.992   -18.277    97.020   -23.922    79.122 
 3240.000000   -16.828    27.685    10.907  -132.800   -18.295    94.405   -23.678    76.986 
 3280.000000   -16.528    24.492    10.895  -136.534   -18.331    91.200   -23.248    73.975 
 3310.000000   -16.345    22.250    10.883  -139.392   -18.338    88.585   -22.997    71.522 
 3350.000000   -16.279    18.770    10.860  -143.188   -18.367    85.192   -22.620    68.570 
 3380.000000   -16.155    16.625    10.834  -145.982   -18.389    82.600   -22.325    66.690 
 3420.000000   -15.921    13.672    10.839  -149.697   -18.421    79.218   -21.915    63.765 
 3450.000000   -15.791    11.333    10.828  -152.548   -18.444    76.778   -21.690    61.450 
 3490.000000   -15.620     7.797    10.802  -156.373   -18.462    73.334   -21.485    58.384 
 3520.000000   -15.574     5.679    10.786  -159.158   -18.490    70.712   -21.123    56.553 
 3560.000000   -15.414     2.867    10.772  -162.821   -18.519    67.310   -20.705    53.807 
 3590.000000   -15.298     0.477    10.767  -165.680   -18.534    64.758   -20.599    51.270 
 3630.000000   -15.118    -2.589    10.761  -169.426   -18.571    61.478   -20.303    48.228 
 3660.000000   -14.979    -4.951    10.740  -172.296   -18.588    58.914   -20.085    45.909 
 3700.000000   -14.995    -8.129    10.712  -175.968   -18.625    55.326   -19.848    43.786 
 3730.000000   -14.848   -10.243    10.713  -178.735   -18.655    52.898   -19.537    40.878 
 3770.000000   -14.670   -13.356    10.706   177.433   -18.662    49.446   -19.395    37.733 
 3800.000000   -14.655   -15.675    10.697   174.659   -18.690    46.813   -19.272    36.219 
 3840.000000   -14.515   -18.767    10.683   170.951   -18.734    43.588   -18.988    32.888 
 3870.000000   -14.465   -21.527    10.671   168.085   -18.738    41.013   -18.840    30.192 
 3910.000000   -14.419   -24.493    10.655   164.321   -18.742    37.479   -18.798    27.738 
 3940.000000   -14.386   -26.833    10.646   161.543   -18.779    34.830   -18.682    25.937 
 3980.000000   -14.335   -29.678    10.612   157.896   -18.826    31.327   -18.449    23.409 
 4010.000000   -14.255   -31.635    10.621   155.160   -18.862    28.748   -18.217    21.386 
 4050.000000   -14.151   -35.382    10.637   151.320   -18.867    25.617   -18.096    17.480 
 4080.000000   -14.116   -38.094    10.619   148.494   -18.874    22.934   -18.079    15.534 
 4120.000000   -14.040   -41.178    10.618   144.762   -18.923    19.517   -17.932    12.654 
 4150.000000   -14.041   -44.027    10.604   141.883   -18.934    17.058   -17.862    10.198 
 4190.000000   -14.091   -47.272    10.580   138.146   -18.935    13.382   -17.784     7.503 
 4220.000000   -14.091   -49.551    10.579   135.361   -18.943    10.809   -17.717     5.355 
 4260.000000   -14.112   -52.631    10.561   131.651   -18.968     7.219   -17.714     3.413 
 4290.000000   -14.020   -55.085    10.572   128.901   -19.016     4.638   -17.589     1.300 
 4330.000000   -14.032   -58.995    10.562   125.066   -19.027     1.295   -17.541    -2.208 
 4360.000000   -14.112   -61.519    10.539   122.259   -19.025    -1.421   -17.507    -3.921 
 4400.000000   -14.114   -64.893    10.548   118.581   -19.056    -4.995   -17.476    -6.534 
 4430.000000   -14.051   -67.338    10.538   115.771   -19.083    -7.589   -17.418    -8.794 
 4470.000000   -14.058   -71.114    10.537   111.995   -19.103   -11.049   -17.398   -11.587 
 4500.000000   -14.148   -73.584    10.527   109.193   -19.110   -13.806   -17.362   -13.274 
 4540.000000   -14.085   -77.155    10.537   105.469   -19.148   -17.255   -17.265   -16.782 
 4570.000000   -14.093   -79.721    10.529   102.616   -19.151   -19.781   -17.293   -18.765 
 4610.000000   -14.089   -83.060    10.522    98.911   -19.179   -23.449   -17.233   -21.015 
 4640.000000   -14.115   -86.047    10.530    96.089   -19.207   -26.008   -17.186   -23.530 
 4680.000000   -14.171   -89.757    10.513    92.346   -19.201   -29.616   -17.174   -26.509 
 4710.000000   -14.240   -92.075    10.514    89.621   -19.208   -32.441   -17.164   -27.901 
 4750.000000   -14.170   -95.328    10.538    85.914   -19.291   -35.882   -17.100   -31.149 
 4780.000000   -14.083   -98.334    10.539    82.968   -19.297   -38.379   -17.074   -34.120 
 4820.000000   -14.183  -102.062    10.534    79.175   -19.306   -41.899   -17.043   -37.076 
 4850.000000   -14.147  -105.443    10.547    76.225   -19.317   -44.448   -17.120   -39.498 
 4890.000000   -14.257  -110.051    10.525    72.345   -19.280   -47.769   -17.320   -42.647 
 4920.000000   -14.376  -112.360    10.493    69.613   -19.280   -50.787   -17.266   -43.768 
 4960.000000   -14.535  -115.448    10.492    65.945   -19.289   -54.544   -17.177   -46.066 
 4990.000000   -14.574  -117.762    10.503    63.272   -19.309   -57.441   -17.124   -48.139 
 5030.000000   -14.434  -121.392    10.535    59.530   -19.385   -60.911   -17.028   -51.562 
 5060.000000   -14.425  -124.460    10.555    56.583   -19.404   -63.426   -17.020   -54.090 
 5100.000000   -14.475  -128.809    10.534    52.617   -19.410   -66.809   -17.131   -57.530 
 5130.000000   -14.598  -132.132    10.506    49.705   -19.358   -69.372   -17.265   -59.684 
 5170.000000   -14.830  -135.088    10.490    46.185   -19.318   -73.411   -17.299   -60.899 
