! Mini-Circuits  
! S2P DATA File Format
! Type: MMIC Amplifier
! Model: GALI-19     Reference Data:RDF-1299
! Note: All S Parameters are in dB deg format
! TEST CONDITIONS: INPUT POWER = -20dBm, Icc = 40mA, Vd = 3.82V @Temperature = -45degC
! 401 Frequency points
!
# MHz S DB R 50
!    FREQ       dB(S11)   PHS(S11)  dB(S21)   PHS(S21)  dB(S12)   PHS(S12)  dB(S22)   PHS(S22) 
   50.000000   -29.169    -2.369    12.300   174.125   -17.013    -5.016   -37.349   163.777 
   65.000000   -28.828    -6.041    12.285   172.576   -17.011    -6.088   -37.296   176.095 
   80.000000   -28.711    -8.785    12.278   171.108   -17.004    -7.443   -39.735   178.021 
  100.000000   -28.238   -12.466    12.262   169.025   -16.989    -9.063   -41.416   169.558 
  115.000000   -27.802   -13.502    12.261   167.628   -17.018   -10.447   -43.936   173.498 
  135.000000   -27.036   -17.789    12.261   165.477   -17.012   -12.026   -45.360   157.413 
  150.000000   -27.163   -18.875    12.253   163.936   -17.019   -13.417   -49.335   152.994 
  170.000000   -27.056   -22.257    12.246   161.832   -17.020   -15.023   -50.815   121.132 
  185.000000   -26.809   -21.694    12.242   160.282   -17.037   -16.394   -50.830   114.681 
  205.000000   -26.900   -23.332    12.252   158.223   -17.027   -18.071   -46.689   115.063 
  220.000000   -27.202   -25.291    12.238   156.662   -17.040   -19.319   -44.299   125.121 
  240.000000   -27.738   -27.766    12.223   154.605   -17.023   -21.207   -42.838   123.268 
  255.000000   -27.891   -30.254    12.223   153.037   -17.041   -22.353   -41.043   124.751 
  275.000000   -28.185   -32.346    12.222   150.914   -17.025   -24.213   -38.947   128.890 
  290.000000   -28.492   -35.743    12.223   149.363   -17.050   -25.520   -37.438   131.879 
  310.000000   -29.042   -38.202    12.226   147.283   -17.037   -27.170   -36.089   132.594 
  325.000000   -29.337   -41.000    12.208   145.697   -17.039   -28.483   -35.595   133.841 
  345.000000   -29.926   -44.100    12.202   143.650   -17.031   -30.150   -34.737   134.866 
  360.000000   -30.102   -47.731    12.196   142.069   -17.047   -31.469   -34.153   137.041 
  380.000000   -30.345   -51.883    12.197   140.004   -17.046   -33.251   -33.540   136.745 
  395.000000   -30.396   -54.358    12.199   138.427   -17.052   -34.561   -33.131   136.481 
  415.000000   -30.604   -58.311    12.186   136.356   -17.051   -36.332   -33.306   136.100 
  430.000000   -30.573   -59.999    12.180   134.792   -17.045   -37.608   -33.247   135.010 
  450.000000   -30.317   -62.884    12.175   132.715   -17.043   -39.401   -32.994   134.535 
  465.000000   -30.394   -64.985    12.175   131.153   -17.045   -40.629   -33.138   133.802 
  485.000000   -29.979   -68.657    12.177   129.029   -17.060   -42.386   -33.052   131.083 
  500.000000   -30.110   -71.093    12.159   127.477   -17.063   -43.666   -33.459   129.910 
  520.000000   -30.105   -75.292    12.149   125.419   -17.046   -45.436   -33.666   128.202 
  535.000000   -29.770   -77.831    12.147   123.851   -17.063   -46.804   -33.252   125.954 
  555.000000   -29.718   -80.856    12.145   121.767   -17.066   -48.459   -33.156   122.820 
  570.000000   -29.503   -82.727    12.142   120.214   -17.057   -49.799   -33.186   121.000 
  590.000000   -29.527   -86.478    12.129   118.142   -17.051   -51.609   -33.114   118.490 
  605.000000   -29.520   -88.700    12.116   116.558   -17.062   -52.911   -33.336   116.552 
  625.000000   -29.301   -92.328    12.115   114.508   -17.071   -54.644   -32.789   114.655 
  640.000000   -29.241   -94.903    12.115   112.975   -17.067   -55.896   -32.571   112.906 
  660.000000   -29.171   -97.655    12.107   110.888   -17.074   -57.668   -32.744   111.452 
  675.000000   -29.066   -99.807    12.102   109.313   -17.068   -59.009   -32.581   110.602 
  695.000000   -28.935  -102.767    12.084   107.244   -17.070   -60.707   -32.771   109.293 
  710.000000   -28.791  -103.590    12.086   105.719   -17.081   -62.006   -32.544   108.488 
  730.000000   -28.589  -105.496    12.083   103.642   -17.084   -63.857   -32.422   107.862 
  745.000000   -28.578  -107.592    12.071   102.089   -17.085   -65.100   -32.928   106.102 
  765.000000   -28.332  -109.806    12.064   100.047   -17.092   -66.807   -32.950   103.995 
  780.000000   -28.134  -110.570    12.061    98.475   -17.091   -68.109   -32.930   102.828 
  800.000000   -28.005  -112.347    12.046    96.428   -17.095   -69.907   -33.571   100.473 
  815.000000   -27.956  -114.331    12.041    94.879   -17.095   -71.196   -33.599    98.423 
  835.000000   -27.831  -116.168    12.035    92.815   -17.093   -72.961   -33.751    95.692 
  850.000000   -27.667  -117.306    12.032    91.256   -17.096   -74.224   -33.869    93.843 
  870.000000   -27.466  -119.721    12.031    89.208   -17.114   -75.995   -33.784    90.854 
  885.000000   -27.516  -121.512    12.017    87.661   -17.101   -77.296   -33.983    87.929 
  905.000000   -27.403  -123.624    12.010    85.609   -17.114   -79.043   -34.188    84.414 
  920.000000   -27.320  -125.722    12.002    84.044   -17.105   -80.380   -33.861    81.987 
  940.000000   -27.292  -128.554    11.999    82.004   -17.123   -82.155   -33.548    79.711 
  955.000000   -27.144  -129.784    11.999    80.467   -17.128   -83.400   -33.366    77.683 
  975.000000   -27.215  -132.860    11.981    78.404   -17.117   -85.191   -33.389    75.264 
  990.000000   -27.182  -134.725    11.969    76.868   -17.124   -86.501   -33.404    73.608 
 1010.000000   -27.085  -136.528    11.968    74.809   -17.131   -88.258   -33.113    72.076 
 1025.000000   -27.030  -138.120    11.962    73.257   -17.127   -89.552   -32.967    71.350 
 1045.000000   -26.990  -140.157    11.955    71.206   -17.136   -91.324   -32.950    70.075 
 1060.000000   -27.093  -141.820    11.946    69.658   -17.131   -92.597   -32.978    69.671 
 1080.000000   -27.100  -144.706    11.932    67.600   -17.135   -94.427   -33.026    68.523 
 1095.000000   -26.930  -145.285    11.937    66.070   -17.147   -95.713   -32.722    67.751 
 1115.000000   -26.926  -147.149    11.933    64.022   -17.153   -97.477   -32.692    66.993 
 1130.000000   -26.923  -148.350    11.923    62.490   -17.159   -98.819   -32.978    65.817 
 1150.000000   -27.007  -149.982    11.913    60.437   -17.160  -100.505   -33.107    64.640 
 1165.000000   -27.086  -152.339    11.906    58.891   -17.162  -101.847   -33.173    63.230 
 1185.000000   -26.899  -153.738    11.899    56.845   -17.164  -103.617   -32.998    61.176 
 1200.000000   -26.850  -155.485    11.898    55.317   -17.176  -104.879   -32.816    60.260 
 1220.000000   -26.917  -157.832    11.882    53.248   -17.170  -106.647   -33.160    58.717 
 1235.000000   -26.967  -159.891    11.880    51.710   -17.178  -107.956   -33.078    57.669 
 1255.000000   -26.977  -162.725    11.869    49.675   -17.178  -109.742   -32.982    55.600 
 1270.000000   -26.893  -164.269    11.867    48.160   -17.185  -111.035   -32.769    53.927 
 1290.000000   -26.859  -166.816    11.869    46.106   -17.204  -112.825   -32.544    52.159 
 1305.000000   -26.909  -169.644    11.848    44.557   -17.195  -114.092   -32.666    50.071 
 1325.000000   -26.915  -172.450    11.845    42.525   -17.198  -115.847   -32.704    48.080 
 1340.000000   -26.794  -173.960    11.834    40.987   -17.201  -117.191   -32.475    46.989 
 1360.000000   -26.659  -176.749    11.830    38.965   -17.219  -118.958   -32.474    45.360 
 1375.000000   -26.469  -178.229    11.833    37.414   -17.215  -120.301   -32.419    44.176 
 1395.000000   -26.389   179.006    11.819    35.373   -17.221  -122.074   -32.758    42.888 
 1410.000000   -26.352   177.350    11.808    33.846   -17.220  -123.354   -33.091    42.367 
 1430.000000   -26.113   175.829    11.809    31.800   -17.236  -125.176   -32.957    40.589 
 1445.000000   -26.054   174.189    11.797    30.307   -17.234  -126.421   -33.152    38.692 
 1465.000000   -25.894   172.995    11.793    28.219   -17.246  -128.210   -33.510    36.787 
 1480.000000   -25.831   171.253    11.781    26.703   -17.245  -129.536   -34.006    36.255 
 1500.000000   -25.713   169.654    11.764    24.644   -17.255  -131.289   -34.411    35.013 
 1515.000000   -25.616   168.648    11.767    23.117   -17.262  -132.625   -34.527    33.699 
 1535.000000   -25.485   167.164    11.758    21.100   -17.268  -134.368   -34.921    31.849 
 1550.000000   -25.526   165.408    11.747    19.592   -17.259  -135.678   -35.396    31.106 
 1570.000000   -25.286   164.300    11.747    17.529   -17.280  -137.418   -35.582    28.770 
 1585.000000   -25.149   163.188    11.743    16.011   -17.284  -138.781   -35.602    27.098 
 1605.000000   -25.135   160.996    11.726    13.970   -17.283  -140.547   -36.419    24.897 
 1620.000000   -25.100   159.764    11.720    12.464   -17.290  -141.877   -36.628    22.394 
 1640.000000   -24.985   157.504    11.709    10.397   -17.305  -143.661   -37.062    22.199 
 1655.000000   -24.861   156.103    11.707     8.887   -17.307  -144.899   -37.221    20.517 
 1675.000000   -24.754   153.815    11.706     6.863   -17.316  -146.687   -37.270    17.645 
 1690.000000   -24.761   151.972    11.693     5.334   -17.325  -148.032   -38.292    15.176 
 1710.000000   -24.632   149.979    11.684     3.318   -17.320  -149.776   -38.717    11.568 
 1725.000000   -24.557   148.199    11.673     1.782   -17.327  -151.140   -39.113     9.028 
 1745.000000   -24.310   146.475    11.675    -0.238   -17.340  -152.861   -39.458     5.179 
 1760.000000   -24.138   145.004    11.673    -1.762   -17.344  -154.188   -39.398     2.345 
 1780.000000   -24.110   142.156    11.654    -3.817   -17.356  -155.995   -40.686    -2.755 
 1795.000000   -24.047   140.521    11.651    -5.339   -17.353  -157.313   -41.123    -9.247 
 1815.000000   -23.841   138.531    11.638    -7.373   -17.365  -159.058   -41.453   -17.138 
 1830.000000   -23.725   137.262    11.634    -8.883   -17.368  -160.431   -41.525   -22.688 
 1850.000000   -23.528   135.380    11.634   -10.883   -17.382  -162.159   -41.549   -31.191 
 1865.000000   -23.542   133.600    11.620   -12.411   -17.388  -163.529   -42.166   -37.361 
 1885.000000   -23.443   131.322    11.610   -14.431   -17.390  -165.283   -42.160   -47.569 
 1900.000000   -23.364   130.011    11.604   -15.955   -17.395  -166.559   -41.530   -49.913 
 1920.000000   -23.164   127.866    11.600   -17.966   -17.400  -168.304   -41.572   -56.656 
 1935.000000   -23.049   126.300    11.600   -19.495   -17.415  -169.647   -41.175   -57.214 
 1955.000000   -22.986   123.704    11.587   -21.559   -17.412  -171.419   -41.239   -62.436 
 1970.000000   -22.958   122.390    11.579   -23.059   -17.413  -172.681   -41.121   -64.749 
 1990.000000   -22.903   119.940    11.577   -25.091   -17.426  -174.533   -40.713   -64.640 
 2005.000000   -22.838   118.554    11.570   -26.598   -17.432  -175.844   -40.652   -65.348 
 2025.000000   -22.757   116.422    11.570   -28.621   -17.452  -177.641   -40.512   -66.829 
 2040.000000   -22.765   114.229    11.550   -30.197   -17.442  -179.019   -40.585   -70.224 
 2060.000000   -22.700   112.428    11.541   -32.220   -17.444   179.174   -41.115   -76.585 
 2075.000000   -22.600   111.117    11.537   -33.724   -17.460   177.878   -40.804   -73.285 
 2095.000000   -22.584   109.492    11.529   -35.750   -17.476   176.058   -41.023   -76.865 
 2120.000000   -22.467   107.024    11.527   -38.286   -17.482   173.913   -42.038   -84.945 
 2160.000000   -22.255   102.931    11.503   -42.352   -17.495   170.210   -42.843   -97.071 
 2190.000000   -22.178   100.053    11.480   -45.361   -17.522   167.604   -42.485  -113.684 
 2230.000000   -21.866    96.830    11.471   -49.410   -17.548   164.075   -42.428  -125.576 
 2260.000000   -21.621    93.797    11.462   -52.407   -17.551   161.448   -42.407  -135.281 
 2300.000000   -21.463    89.922    11.442   -56.472   -17.574   157.870   -41.784  -152.605 
 2330.000000   -21.358    87.131    11.430   -59.497   -17.576   155.140   -41.819  -159.219 
 2370.000000   -21.182    83.456    11.412   -63.561   -17.591   151.634   -42.379  -172.383 
 2400.000000   -21.039    81.140    11.409   -66.575   -17.605   148.958   -42.297   175.877 
 2440.000000   -20.840    78.177    11.385   -70.619   -17.654   145.364   -41.570   162.959 
 2470.000000   -20.767    75.734    11.367   -73.647   -17.651   142.691   -40.053   145.874 
 2510.000000   -20.549    72.747    11.353   -77.636   -17.662   139.115   -37.628   130.651 
 2540.000000   -20.373    69.971    11.343   -80.686   -17.672   136.381   -36.784   125.172 
 2580.000000   -20.206    66.739    11.323   -84.736   -17.710   132.811   -35.629   121.033 
 2610.000000   -19.991    64.813    11.315   -87.726   -17.722   130.114   -34.367   116.189 
 2650.000000   -19.811    61.053    11.295   -91.770   -17.739   126.518   -33.247   111.417 
 2680.000000   -19.734    58.176    11.281   -94.799   -17.740   123.803   -32.531   108.792 
 2720.000000   -19.480    55.242    11.265   -98.830   -17.779   120.175   -32.027   104.316 
 2750.000000   -19.397    52.514    11.250  -101.852   -17.794   117.469   -31.616   101.636 
 2790.000000   -19.252    49.606    11.226  -105.846   -17.834   113.910   -30.602    97.278 
 2820.000000   -19.076    47.335    11.213  -108.850   -17.835   111.199   -29.916    92.249 
 2860.000000   -18.874    44.855    11.193  -112.814   -17.863   107.579   -28.941    88.072 
 2890.000000   -18.677    42.365    11.194  -115.822   -17.887   104.923   -28.405    84.049 
 2930.000000   -18.511    39.582    11.172  -119.856   -17.909   101.295   -27.817    79.618 
 2960.000000   -18.395    37.536    11.158  -122.854   -17.919    98.605   -27.142    77.174 
 3000.000000   -18.258    34.223    11.143  -126.875   -17.934    95.014   -26.510    72.532 
 3030.000000   -18.142    31.690    11.140  -129.892   -17.954    92.278   -26.363    69.247 
 3070.000000   -18.107    28.378    11.116  -133.927   -17.971    88.673   -25.842    65.416 
 3100.000000   -18.060    26.034    11.105  -136.923   -17.986    85.888   -25.528    62.763 
 3140.000000   -18.038    22.687    11.082  -140.936   -18.015    82.212   -25.241    59.035 
 3170.000000   -17.918    20.685    11.080  -143.894   -18.036    79.469   -24.871    56.560 
 3210.000000   -17.779    17.532    11.069  -147.842   -18.067    75.930   -24.392    53.135 
 3240.000000   -17.787    14.760    11.052  -150.877   -18.079    73.225   -24.090    50.459 
 3280.000000   -17.618    10.953    11.034  -154.828   -18.100    69.588   -23.613    47.788 
 3310.000000   -17.487     8.119    11.036  -157.862   -18.108    66.884   -23.416    45.220 
 3350.000000   -17.476     3.889    11.019  -161.897   -18.121    63.154   -23.332    42.765 
 3380.000000   -17.384     1.214    11.005  -164.841   -18.155    60.334   -23.202    41.340 
 3420.000000   -17.273    -2.366    10.984  -168.806   -18.184    56.703   -22.802    38.699 
 3450.000000   -17.217    -5.324    10.979  -171.842   -18.191    54.034   -22.705    36.025 
 3490.000000   -17.139    -9.534    10.960  -175.870   -18.211    50.259   -22.658    33.123 
 3520.000000   -17.040   -12.030    10.954  -178.809   -18.233    47.569   -22.355    30.872 
 3560.000000   -16.980   -15.431    10.938   177.256   -18.274    43.896   -22.125    28.138 
 3590.000000   -16.863   -18.196    10.924   174.240   -18.285    41.164   -21.881    25.125 
 3630.000000   -16.735   -21.909    10.915   170.247   -18.311    37.527   -21.532    21.569 
 3660.000000   -16.599   -24.820    10.913   167.221   -18.314    34.835   -21.412    19.269 
 3700.000000   -16.609   -28.528    10.884   163.287   -18.354    30.983   -21.280    17.253 
 3730.000000   -16.458   -30.933    10.886   160.361   -18.373    28.309   -21.020    14.523 
 3770.000000   -16.367   -34.674    10.868   156.250   -18.373    24.582   -20.918    11.232 
 3800.000000   -16.413   -37.385    10.847   153.282   -18.388    21.727   -20.820     9.367 
 3840.000000   -16.246   -40.473    10.853   149.425   -18.432    18.199   -20.655     6.116 
 3870.000000   -16.237   -43.540    10.838   146.370   -18.428    15.362   -20.526     2.901 
 3910.000000   -16.285   -46.733    10.815   142.391   -18.455    11.572   -20.488     0.064 
 3940.000000   -16.266   -49.594    10.803   139.385   -18.465     8.728   -20.354    -2.457 
 3980.000000   -16.225   -52.728    10.787   135.553   -18.511     4.850   -20.167    -4.742 
 4010.000000   -16.104   -55.094    10.802   132.632   -18.553     2.284   -19.914    -7.070 
 4050.000000   -15.975   -59.663    10.806   128.510   -18.550    -1.200   -19.802   -11.763 
 4080.000000   -15.993   -62.796    10.787   125.475   -18.549    -4.069   -19.771   -13.907 
 4120.000000   -15.968   -66.694    10.769   121.442   -18.561    -7.801   -19.674   -16.946 
 4150.000000   -15.937   -69.388    10.763   118.486   -18.577   -10.662   -19.666   -19.290 
 4190.000000   -15.952   -72.626    10.744   114.555   -18.603   -14.570   -19.606   -22.174 
 4220.000000   -15.937   -75.174    10.730   111.556   -18.603   -17.333   -19.447   -24.907 
 4260.000000   -16.002   -78.098    10.707   107.646   -18.629   -21.274   -19.381   -27.353 
 4290.000000   -15.886   -80.605    10.718   104.720   -18.668   -24.014   -19.117   -30.378 
 4330.000000   -15.830   -84.556    10.715   100.674   -18.682   -27.629   -19.032   -34.348 
 4360.000000   -15.875   -87.249    10.701    97.736   -18.695   -30.647   -18.982   -36.138 
 4400.000000   -15.884   -90.910    10.684    93.748   -18.715   -34.371   -18.833   -39.539 
 4430.000000   -15.814   -93.323    10.674    90.848   -18.737   -37.244   -18.611   -41.558 
 4470.000000   -15.773   -97.594    10.675    86.832   -18.755   -40.968   -18.547   -44.658 
 4500.000000   -15.757  -100.163    10.669    83.867   -18.778   -43.973   -18.447   -46.515 
 4540.000000   -15.611  -103.803    10.676    79.905   -18.815   -47.594   -18.189   -50.907 
 4570.000000   -15.622  -106.685    10.657    76.829   -18.798   -50.437   -18.179   -53.253 
 4610.000000   -15.554  -109.856    10.657    72.970   -18.847   -54.335   -18.031   -55.805 
 4640.000000   -15.520  -113.085    10.651    69.941   -18.852   -57.134   -17.926   -58.766 
 4680.000000   -15.514  -115.980    10.644    66.130   -18.871   -61.127   -17.692   -61.728 
 4710.000000   -15.501  -118.300    10.638    63.159   -18.897   -64.008   -17.501   -64.061 
 4750.000000   -15.367  -121.863    10.650    59.143   -18.941   -67.661   -17.258   -68.178 
 4780.000000   -15.247  -125.199    10.651    56.059   -18.949   -70.322   -17.193   -70.707 
 4820.000000   -15.233  -129.234    10.646    52.055   -18.961   -74.062   -17.064   -73.239 
 4850.000000   -15.257  -133.053    10.634    48.925   -18.954   -76.819   -17.040   -75.679 
 4890.000000   -15.511  -137.514    10.578    44.931   -18.881   -80.748   -17.163   -77.640 
 4920.000000   -15.577  -138.817    10.574    42.293   -18.911   -84.070   -16.959   -77.737 
 4960.000000   -15.533  -141.858    10.598    38.456   -18.968   -88.097   -16.785   -80.123 
 4990.000000   -15.440  -144.535    10.616    35.544   -19.011   -90.981   -16.643   -82.839 
 5030.000000   -15.292  -148.932    10.641    31.422   -19.060   -94.554   -16.526   -86.955 
 5060.000000   -15.307  -152.317    10.636    28.261   -19.066   -97.274   -16.520   -89.695 
 5100.000000   -15.372  -156.815    10.605    24.220   -19.023  -100.988   -16.646   -92.701 
 5130.000000   -15.418  -159.581    10.581    21.317   -18.994  -103.999   -16.624   -94.424 
 5170.000000   -15.482  -161.536    10.573    17.644   -19.005  -108.434   -16.375   -96.269 
